T164C 000:000.954   SEGGER J-Link V8.74 Log File
T164C 000:001.130   DLL Compiled: Sep 30 2025 12:11:23
T164C 000:001.142   Logging started @ 2025-12-02 17:53
T164C 000:001.154   Process: C:\Users\laulef01\.eclipse\com.renesas.platform_1309835749\DebugComp\RA\e2-server-gdb.exe
T164C 000:001.169 - 1.165ms 
T164C 000:001.189 JLINK_GetDLLVersion()
T164C 000:001.200 - 0.012ms returns 87400
T164C 000:006.607 JLINK_OpenEx(...)
T164C 000:019.594   Firmware: J-Link OB-RA4M2 compiled Jul  8 2025 10:15:56
T164C 000:020.864   Firmware: J-Link OB-RA4M2 compiled Jul  8 2025 10:15:56
T164C 000:032.965   Hardware: V1.00
T164C 000:033.019   S/N: 1088897696
T164C 000:033.036   OEM: SEGGER
T164C 000:033.053   Feature(s): None
T164C 000:034.384   Bootloader: 2021 May 14
T164C 000:034.851   USB speed mode: Full speed (12 MBit/s)
T164C 000:035.314   TELNET listener socket opened on port 19021
T164C 000:035.557   WEBSRV WEBSRV_Init(): Starting webserver thread(s)
T164C 000:035.859   WEBSRV Webserver running on local port 19080
T164C 000:036.010   Looking for J-Link GUI Server exe at: C:\Users\laulef01\.eclipse\com.renesas.platform_1309835749\DebugComp\RA\ARM\Segger_v8.74.0\JLinkGUIServer.exe
T164C 000:036.142   Looking for J-Link GUI Server exe at: C:\Program Files\SEGGER\JLink\JLinkGUIServer.exe
T164C 000:036.181   Forking J-Link GUI Server: C:\Program Files\SEGGER\JLink\JLinkGUIServer.exe
T164C 001:842.025   J-Link GUI Server info: "J-Link GUI server V8.78 "
T164C 001:846.326 - 1839.714ms returns "O.K."
T164C 001:846.653 JLINK_TIF_Select(JLINKARM_TIF_SWD)
T164C 001:847.294 - 0.642ms returns 0x00
T164C 001:847.379 JLINK_ClrRESET()
T164C 001:847.680 - 0.300ms 
T164C 001:898.230 JLINK_SetSpeed(1500)
T164C 001:898.717 - 0.499ms 
T164C 001:898.833 JLINK_CORESIGHT_Configure(PerformTIFInit=0)
T164C 001:899.591 - 0.764ms returns 0
T164C 001:899.678 JLINK_CORESIGHT_ReadAPDPReg(DP reg 0x00)
T164C 001:900.360   Value=0x6BA02477
T164C 001:900.476 - 0.800ms returns 0
T164C 001:900.500 JLINK_CORESIGHT_WriteAPDPReg(DP reg 0x00, 0x0000001F)
T164C 001:902.138 - 1.637ms returns 0
T164C 001:902.189 JLINK_CORESIGHT_ReadAPDPReg(DP reg 0x00)
T164C 001:902.437   Value=0x6BA02477
T164C 001:902.463 - 0.274ms returns 0
T164C 001:902.480 JLINK_CORESIGHT_WriteAPDPReg(DP reg 0x02, 0x00000000)
T164C 001:902.679 - 0.199ms returns 0
T164C 001:902.721 JLINK_CORESIGHT_WriteAPDPReg(DP reg 0x01, 0x50000000)
T164C 001:902.950 - 0.229ms returns 0
T164C 001:903.002 JLINK_CORESIGHT_ReadAPDPReg(DP reg 0x01)
T164C 001:903.221   Value=0xF0000040
T164C 001:903.244 - 0.242ms returns 0
T164C 001:903.259 JLINK_CORESIGHT_WriteAPDPReg(DP reg 0x00, 0x0000001F)
T164C 001:903.468 - 0.208ms returns 0
T164C 001:903.485 JLINK_CORESIGHT_ReadAPDPReg(DP reg 0x00)
T164C 001:903.700   Value=0x6BA02477
T164C 001:903.721 - 0.236ms returns 0
T164C 001:903.736 JLINK_CORESIGHT_WriteAPDPReg(DP reg 0x01, 0x54000000)
T164C 001:903.924 - 0.188ms returns 0
T164C 001:903.938 JLINK_CORESIGHT_WriteAPDPReg(DP reg 0x01, 0x50000F00)
T164C 001:904.172 - 0.234ms returns 0
T164C 001:904.188 JLINK_CORESIGHT_WriteAPDPReg(DP reg 0x02, 0x01000000)
T164C 001:904.402 - 0.214ms returns 0
T164C 001:904.416 JLINK_CORESIGHT_WriteAPDPReg(AP reg 0x00, 0x80000002)
T164C 001:904.621 - 0.204ms returns 0
T164C 001:904.653 JLINK_CORESIGHT_WriteAPDPReg(AP reg 0x01, 0x80011100)
T164C 001:904.843 - 0.189ms returns 0
T164C 001:904.858 JLINK_CORESIGHT_WriteAPDPReg(AP reg 0x03, 0x000000A5)
T164C 001:905.047 - 0.190ms returns 0
T164C 001:905.062 JLINK_CORESIGHT_WriteAPDPReg(AP reg 0x00, 0x80000002)
T164C 001:905.268 - 0.206ms returns 0
T164C 001:905.286 JLINK_CORESIGHT_WriteAPDPReg(AP reg 0x01, 0x80011100)
T164C 001:905.603 - 0.316ms returns 0
T164C 001:905.629 JLINK_CORESIGHT_ReadAPDPReg(AP reg 0x03)
T164C 001:905.884   Value=0x000000A5
T164C 001:905.932 - 0.303ms returns 0
T164C 001:905.946 JLINK_ClrTMS()
T164C 001:906.057 - 0.110ms 
T164C 001:911.132 JLINK_SetTCK()
T164C 001:911.360 - 0.228ms returns 0
T164C 001:917.368 JLINK_SetRESET()
T164C 001:917.494 - 0.127ms 
T164C 002:118.156 JLINK_CORESIGHT_WriteAPDPReg(AP reg 0x00, 0x80000002)
T164C 002:118.768 - 0.612ms returns 0
T164C 002:118.873 JLINK_CORESIGHT_WriteAPDPReg(AP reg 0x01, 0x80011100)
T164C 002:119.215 - 0.343ms returns 0
T164C 002:119.265 JLINK_CORESIGHT_ReadAPDPReg(AP reg 0x03)
T164C 002:119.602   Value=0x00000000
T164C 002:119.648 - 0.383ms returns 0
T164C 002:119.681 JLINK_CORESIGHT_WriteAPDPReg(AP reg 0x00, 0x80000002)
T164C 002:119.944 - 0.263ms returns 0
T164C 002:119.974 JLINK_CORESIGHT_WriteAPDPReg(AP reg 0x01, 0x80011140)
T164C 002:120.238 - 0.264ms returns 0
T164C 002:120.270 JLINK_CORESIGHT_ReadAPDPReg(AP reg 0x03)
T164C 002:120.573   Value=0x00000002
T164C 002:120.608 - 0.337ms returns 0
T164C 002:120.629 JLINK_CORESIGHT_WriteAPDPReg(AP reg 0x00, 0x80000002)
T164C 002:120.866 - 0.237ms returns 0
T164C 002:120.890 JLINK_CORESIGHT_WriteAPDPReg(AP reg 0x01, 0x80011120)
T164C 002:121.170 - 0.280ms returns 0
T164C 002:121.192 JLINK_CORESIGHT_WriteAPDPReg(AP reg 0x03, 0x00000055)
T164C 002:121.421 - 0.228ms returns 0
T164C 002:121.443 JLINK_CORESIGHT_WriteAPDPReg(AP reg 0x00, 0x80000002)
T164C 002:121.670 - 0.227ms returns 0
T164C 002:121.694 JLINK_CORESIGHT_WriteAPDPReg(AP reg 0x01, 0x80011140)
T164C 002:121.916 - 0.222ms returns 0
T164C 002:121.935 JLINK_CORESIGHT_ReadAPDPReg(AP reg 0x03)
T164C 002:122.253   Value=0x00000000
T164C 002:122.294 - 0.358ms returns 0
T164C 002:122.308 JLINK_CORESIGHT_WriteAPDPReg(AP reg 0x00, 0x80000002)
T164C 002:122.534 - 0.225ms returns 0
T164C 002:122.567 JLINK_CORESIGHT_WriteAPDPReg(AP reg 0x01, 0x80011130)
T164C 002:122.788 - 0.221ms returns 0
T164C 002:122.805 JLINK_CORESIGHT_ReadAPDPReg(AP reg 0x03)
T164C 002:123.062   Value=0x000000C6
T164C 002:123.081 - 0.276ms returns 0
T164C 002:123.100 JLINK_CORESIGHT_WriteAPDPReg(AP reg 0x00, 0x80000002)
T164C 002:123.314 - 0.214ms returns 0
T164C 002:123.329 JLINK_CORESIGHT_WriteAPDPReg(AP reg 0x01, 0x80011140)
T164C 002:123.558 - 0.229ms returns 0
T164C 002:123.573 JLINK_CORESIGHT_ReadAPDPReg(AP reg 0x03)
T164C 002:123.828   Value=0x00000002
T164C 002:123.846 - 0.273ms returns 0
T164C 002:123.859 JLINK_CORESIGHT_WriteAPDPReg(AP reg 0x00, 0x80000002)
T164C 002:124.052 - 0.193ms returns 0
T164C 002:124.066 JLINK_CORESIGHT_WriteAPDPReg(AP reg 0x01, 0x80011120)
T164C 002:124.280 - 0.213ms returns 0
T164C 002:124.294 JLINK_CORESIGHT_WriteAPDPReg(AP reg 0x03, 0x3A010001)
T164C 002:124.501 - 0.207ms returns 0
T164C 002:124.515 JLINK_CORESIGHT_WriteAPDPReg(AP reg 0x00, 0x80000002)
T164C 002:124.718 - 0.203ms returns 0
T164C 002:124.733 JLINK_CORESIGHT_WriteAPDPReg(AP reg 0x01, 0x80011140)
T164C 002:124.948 - 0.216ms returns 0
T164C 002:124.963 JLINK_CORESIGHT_ReadAPDPReg(AP reg 0x03)
T164C 002:125.232   Value=0x00000002
T164C 002:125.277 - 0.313ms returns 0
T164C 002:125.299 JLINK_CORESIGHT_WriteAPDPReg(AP reg 0x00, 0x80000002)
T164C 002:125.580 - 0.281ms returns 0
T164C 002:125.606 JLINK_CORESIGHT_WriteAPDPReg(AP reg 0x01, 0x80011120)
T164C 002:125.842 - 0.236ms returns 0
T164C 002:125.857 JLINK_CORESIGHT_WriteAPDPReg(AP reg 0x03, 0x000003C5)
T164C 002:126.074 - 0.216ms returns 0
T164C 002:126.088 JLINK_CORESIGHT_WriteAPDPReg(AP reg 0x00, 0x80000002)
T164C 002:126.299 - 0.210ms returns 0
T164C 002:126.313 JLINK_CORESIGHT_WriteAPDPReg(AP reg 0x01, 0x80011140)
T164C 002:126.517 - 0.203ms returns 0
T164C 002:126.531 JLINK_CORESIGHT_ReadAPDPReg(AP reg 0x03)
T164C 002:126.841   Value=0x00000002
T164C 002:126.859 - 0.328ms returns 0
T164C 002:126.872 JLINK_CORESIGHT_ReadAPDPReg(AP reg 0x03)
T164C 002:127.095   Value=0x00000000
T164C 002:127.113 - 0.241ms returns 0
T164C 002:127.125 JLINK_CORESIGHT_WriteAPDPReg(AP reg 0x00, 0x80000002)
T164C 002:127.328 - 0.202ms returns 0
T164C 002:127.342 JLINK_CORESIGHT_WriteAPDPReg(AP reg 0x01, 0x80011130)
T164C 002:127.559 - 0.216ms returns 0
T164C 002:127.573 JLINK_CORESIGHT_ReadAPDPReg(AP reg 0x03)
T164C 002:127.823   Value=0x3A2A0081
T164C 002:127.842 - 0.268ms returns 0
T164C 002:127.857 JLINK_CORESIGHT_WriteAPDPReg(AP reg 0x00, 0x80000002)
T164C 002:128.046 - 0.189ms returns 0
T164C 002:128.062 JLINK_CORESIGHT_WriteAPDPReg(AP reg 0x01, 0x80011140)
T164C 002:128.275 - 0.213ms returns 0
T164C 002:128.290 JLINK_CORESIGHT_ReadAPDPReg(AP reg 0x03)
T164C 002:128.535   Value=0x00000000
T164C 002:128.554 - 0.264ms returns 0
T164C 002:128.566 JLINK_CORESIGHT_WriteAPDPReg(AP reg 0x00, 0x80000002)
T164C 002:128.775 - 0.209ms returns 0
T164C 002:128.789 JLINK_CORESIGHT_WriteAPDPReg(AP reg 0x01, 0x80011130)
T164C 002:129.054 - 0.264ms returns 0
T164C 002:129.068 JLINK_CORESIGHT_ReadAPDPReg(AP reg 0x03)
T164C 002:129.318   Value=0x808D5B00
T164C 002:129.335 - 0.267ms returns 0
T164C 002:129.348 JLINK_CORESIGHT_WriteAPDPReg(AP reg 0x00, 0x80000002)
T164C 002:129.551 - 0.203ms returns 0
T164C 002:129.566 JLINK_CORESIGHT_WriteAPDPReg(AP reg 0x01, 0x80011140)
T164C 002:129.775 - 0.209ms returns 0
T164C 002:129.830 JLINK_CORESIGHT_ReadAPDPReg(AP reg 0x03)
T164C 002:130.303   Value=0x00000000
T164C 002:130.329 - 0.499ms returns 0
T164C 002:130.346 JLINK_CORESIGHT_WriteAPDPReg(AP reg 0x00, 0x80000002)
T164C 002:130.552 - 0.206ms returns 0
T164C 002:130.570 JLINK_CORESIGHT_WriteAPDPReg(AP reg 0x01, 0x80011130)
T164C 002:130.780 - 0.210ms returns 0
T164C 002:130.798 JLINK_CORESIGHT_ReadAPDPReg(AP reg 0x03)
T164C 002:131.055   Value=0x0603030B
T164C 002:131.073 - 0.275ms returns 0
T164C 002:131.088 JLINK_CORESIGHT_WriteAPDPReg(AP reg 0x00, 0x80000002)
T164C 002:131.296 - 0.208ms returns 0
T164C 002:131.313 JLINK_CORESIGHT_WriteAPDPReg(AP reg 0x01, 0x80011140)
T164C 002:131.516 - 0.202ms returns 0
T164C 002:131.532 JLINK_CORESIGHT_ReadAPDPReg(AP reg 0x03)
T164C 002:131.844   Value=0x00000000
T164C 002:131.863 - 0.330ms returns 0
T164C 002:131.878 JLINK_CORESIGHT_WriteAPDPReg(AP reg 0x00, 0x80000002)
T164C 002:132.099 - 0.221ms returns 0
T164C 002:132.116 JLINK_CORESIGHT_WriteAPDPReg(AP reg 0x01, 0x80011130)
T164C 002:132.340 - 0.223ms returns 0
T164C 002:132.357 JLINK_CORESIGHT_ReadAPDPReg(AP reg 0x03)
T164C 002:132.589   Value=0x2F4B4E20
T164C 002:132.607 - 0.250ms returns 0
T164C 002:132.622 JLINK_CORESIGHT_WriteAPDPReg(AP reg 0x00, 0x80000002)
T164C 002:132.841 - 0.219ms returns 0
T164C 002:132.858 JLINK_CORESIGHT_WriteAPDPReg(AP reg 0x01, 0x80011140)
T164C 002:133.046 - 0.187ms returns 0
T164C 002:133.063 JLINK_CORESIGHT_ReadAPDPReg(AP reg 0x03)
T164C 002:133.308   Value=0x00000000
T164C 002:133.329 - 0.266ms returns 0
T164C 002:133.344 JLINK_CORESIGHT_WriteAPDPReg(AP reg 0x00, 0x80000002)
T164C 002:133.551 - 0.207ms returns 0
T164C 002:133.568 JLINK_CORESIGHT_WriteAPDPReg(AP reg 0x01, 0x80011130)
T164C 002:133.775 - 0.207ms returns 0
T164C 002:133.791 JLINK_CORESIGHT_ReadAPDPReg(AP reg 0x03)
T164C 002:134.059   Value=0x4BFBBA50
T164C 002:134.080 - 0.289ms returns 0
T164C 002:134.095 JLINK_CORESIGHT_WriteAPDPReg(AP reg 0x00, 0x80000002)
T164C 002:134.301 - 0.206ms returns 0
T164C 002:134.318 JLINK_CORESIGHT_WriteAPDPReg(AP reg 0x01, 0x80011140)
T164C 002:134.525 - 0.206ms returns 0
T164C 002:134.541 JLINK_CORESIGHT_ReadAPDPReg(AP reg 0x03)
T164C 002:134.787   Value=0x00000000
T164C 002:134.806 - 0.264ms returns 0
T164C 002:134.821 JLINK_CORESIGHT_WriteAPDPReg(AP reg 0x00, 0x80000002)
T164C 002:135.053 - 0.232ms returns 0
T164C 002:135.071 JLINK_CORESIGHT_WriteAPDPReg(AP reg 0x01, 0x80011130)
T164C 002:135.284 - 0.213ms returns 0
T164C 002:135.304 JLINK_CORESIGHT_ReadAPDPReg(AP reg 0x03)
T164C 002:135.550   Value=0x38363553
T164C 002:135.568 - 0.264ms returns 0
T164C 002:135.583 JLINK_CORESIGHT_WriteAPDPReg(AP reg 0x00, 0x80000002)
T164C 002:135.785 - 0.202ms returns 0
T164C 002:135.802 JLINK_CORESIGHT_WriteAPDPReg(AP reg 0x01, 0x80011140)
T164C 002:136.057 - 0.254ms returns 0
T164C 002:136.075 JLINK_CORESIGHT_ReadAPDPReg(AP reg 0x03)
T164C 002:136.322   Value=0x00000000
T164C 002:136.340 - 0.265ms returns 0
T164C 002:136.355 JLINK_CORESIGHT_WriteAPDPReg(AP reg 0x00, 0x80000002)
T164C 002:136.546 - 0.190ms returns 0
T164C 002:136.563 JLINK_CORESIGHT_WriteAPDPReg(AP reg 0x01, 0x80011130)
T164C 002:136.764 - 0.201ms returns 0
T164C 002:136.789 JLINK_CORESIGHT_ReadAPDPReg(AP reg 0x03)
T164C 002:137.055   Value=0x65164335
T164C 002:137.073 - 0.284ms returns 0
T164C 002:137.088 JLINK_CORESIGHT_WriteAPDPReg(AP reg 0x00, 0x80000002)
T164C 002:137.296 - 0.208ms returns 0
T164C 002:137.312 JLINK_CORESIGHT_WriteAPDPReg(AP reg 0x01, 0x80011140)
T164C 002:137.514 - 0.201ms returns 0
T164C 002:137.531 JLINK_CORESIGHT_ReadAPDPReg(AP reg 0x03)
T164C 002:137.827   Value=0x00000000
T164C 002:137.845 - 0.314ms returns 0
T164C 002:137.860 JLINK_CORESIGHT_WriteAPDPReg(AP reg 0x00, 0x80000002)
T164C 002:138.048 - 0.188ms returns 0
T164C 002:138.070 JLINK_CORESIGHT_WriteAPDPReg(AP reg 0x01, 0x80011130)
T164C 002:138.279 - 0.209ms returns 0
T164C 002:138.299 JLINK_CORESIGHT_ReadAPDPReg(AP reg 0x03)
T164C 002:138.550   Value=0x46375282
T164C 002:138.568 - 0.269ms returns 0
T164C 002:138.583 JLINK_CORESIGHT_WriteAPDPReg(AP reg 0x00, 0x80000002)
T164C 002:138.784 - 0.201ms returns 0
T164C 002:138.801 JLINK_CORESIGHT_WriteAPDPReg(AP reg 0x01, 0x80011140)
T164C 002:139.054 - 0.252ms returns 0
T164C 002:139.070 JLINK_CORESIGHT_ReadAPDPReg(AP reg 0x03)
T164C 002:139.328   Value=0x00000000
T164C 002:139.346 - 0.275ms returns 0
T164C 002:139.360 JLINK_CORESIGHT_WriteAPDPReg(AP reg 0x00, 0x80000002)
T164C 002:139.546 - 0.185ms returns 0
T164C 002:139.562 JLINK_CORESIGHT_WriteAPDPReg(AP reg 0x01, 0x80011130)
T164C 002:139.764 - 0.202ms returns 0
T164C 002:139.782 JLINK_CORESIGHT_ReadAPDPReg(AP reg 0x03)
T164C 002:140.077   Value=0x31453841
T164C 002:140.095 - 0.313ms returns 0
T164C 002:140.110 JLINK_CORESIGHT_WriteAPDPReg(AP reg 0x00, 0x80000002)
T164C 002:140.302 - 0.192ms returns 0
T164C 002:140.319 JLINK_CORESIGHT_WriteAPDPReg(AP reg 0x01, 0x80011140)
T164C 002:140.529 - 0.210ms returns 0
T164C 002:140.546 JLINK_CORESIGHT_ReadAPDPReg(AP reg 0x03)
T164C 002:140.929   Value=0x00000000
T164C 002:140.967 - 0.421ms returns 0
T164C 002:141.415 JLINK_CORESIGHT_WriteAPDPReg(AP reg 0x00, 0x80000002)
T164C 002:141.682 - 0.269ms returns 0
T164C 002:141.699 JLINK_CORESIGHT_WriteAPDPReg(AP reg 0x01, 0x80011130)
T164C 002:141.909 - 0.210ms returns 0
T164C 002:141.938 JLINK_CORESIGHT_ReadAPDPReg(AP reg 0x03)
T164C 002:142.213   Value=0x43444641
T164C 002:142.231 - 0.293ms returns 0
T164C 002:142.244 JLINK_CORESIGHT_WriteAPDPReg(AP reg 0x00, 0x80000002)
T164C 002:142.446 - 0.202ms returns 0
T164C 002:142.461 JLINK_CORESIGHT_WriteAPDPReg(AP reg 0x01, 0x80011140)
T164C 002:142.662 - 0.201ms returns 0
T164C 002:142.676 JLINK_CORESIGHT_ReadAPDPReg(AP reg 0x03)
T164C 002:142.924   Value=0x00000000
T164C 002:142.942 - 0.265ms returns 0
T164C 002:142.954 JLINK_CORESIGHT_WriteAPDPReg(AP reg 0x00, 0x80000002)
T164C 002:143.173 - 0.219ms returns 0
T164C 002:143.188 JLINK_CORESIGHT_WriteAPDPReg(AP reg 0x01, 0x80011130)
T164C 002:143.387 - 0.199ms returns 0
T164C 002:143.402 JLINK_CORESIGHT_ReadAPDPReg(AP reg 0x03)
T164C 002:143.727   Value=0x20204246
T164C 002:143.748 - 0.346ms returns 0
T164C 002:143.762 JLINK_CORESIGHT_WriteAPDPReg(AP reg 0x00, 0x80000002)
T164C 002:143.966 - 0.204ms returns 0
T164C 002:143.986 JLINK_CORESIGHT_WriteAPDPReg(AP reg 0x01, 0x80011140)
T164C 002:144.207 - 0.221ms returns 0
T164C 002:144.226 JLINK_CORESIGHT_ReadAPDPReg(AP reg 0x03)
T164C 002:144.474   Value=0x00000000
T164C 002:144.502 - 0.276ms returns 0
T164C 002:144.515 JLINK_CORESIGHT_WriteAPDPReg(AP reg 0x00, 0x80000002)
T164C 002:144.720 - 0.205ms returns 0
T164C 002:144.735 JLINK_CORESIGHT_WriteAPDPReg(AP reg 0x01, 0x80011130)
T164C 002:144.952 - 0.216ms returns 0
T164C 002:144.967 JLINK_CORESIGHT_ReadAPDPReg(AP reg 0x03)
T164C 002:145.216   Value=0x0003C620
T164C 002:145.239 - 0.272ms returns 0
T164C 002:145.310 JLINK_CORESIGHT_WriteAPDPReg(AP reg 0x00, 0x80000002)
T164C 002:145.513 - 0.202ms returns 0
T164C 002:145.528 JLINK_CORESIGHT_WriteAPDPReg(AP reg 0x01, 0x80011140)
T164C 002:145.796 - 0.268ms returns 0
T164C 002:145.810 JLINK_CORESIGHT_ReadAPDPReg(AP reg 0x03)
T164C 002:146.046   Value=0x00000002
T164C 002:146.112 - 0.302ms returns 0
T164C 002:146.124 JLINK_CORESIGHT_WriteAPDPReg(AP reg 0x00, 0x80000002)
T164C 002:146.340 - 0.215ms returns 0
T164C 002:146.354 JLINK_CORESIGHT_WriteAPDPReg(AP reg 0x01, 0x80011120)
T164C 002:146.570 - 0.216ms returns 0
T164C 002:146.589 JLINK_CORESIGHT_WriteAPDPReg(AP reg 0x03, 0x2C010001)
T164C 002:146.795 - 0.205ms returns 0
T164C 002:146.809 JLINK_CORESIGHT_WriteAPDPReg(AP reg 0x00, 0x80000002)
T164C 002:147.052 - 0.243ms returns 0
T164C 002:147.066 JLINK_CORESIGHT_WriteAPDPReg(AP reg 0x01, 0x80011140)
T164C 002:147.264 - 0.198ms returns 0
T164C 002:147.278 JLINK_CORESIGHT_ReadAPDPReg(AP reg 0x03)
T164C 002:147.588   Value=0x00000002
T164C 002:147.606 - 0.327ms returns 0
T164C 002:147.618 JLINK_CORESIGHT_WriteAPDPReg(AP reg 0x00, 0x80000002)
T164C 002:147.820 - 0.202ms returns 0
T164C 002:147.834 JLINK_CORESIGHT_WriteAPDPReg(AP reg 0x01, 0x80011120)
T164C 002:148.055 - 0.220ms returns 0
T164C 002:148.069 JLINK_CORESIGHT_WriteAPDPReg(AP reg 0x03, 0x000003D3)
T164C 002:148.274 - 0.204ms returns 0
T164C 002:148.288 JLINK_CORESIGHT_WriteAPDPReg(AP reg 0x00, 0x80000002)
T164C 002:148.516 - 0.227ms returns 0
T164C 002:148.543 JLINK_CORESIGHT_WriteAPDPReg(AP reg 0x01, 0x80011140)
T164C 002:148.757 - 0.214ms returns 0
T164C 002:148.774 JLINK_CORESIGHT_ReadAPDPReg(AP reg 0x03)
T164C 002:149.046   Value=0x00000000
T164C 002:149.064 - 0.289ms returns 0
T164C 002:149.076 JLINK_CORESIGHT_WriteAPDPReg(AP reg 0x00, 0x80000002)
T164C 002:149.288 - 0.212ms returns 0
T164C 002:149.302 JLINK_CORESIGHT_WriteAPDPReg(AP reg 0x01, 0x80011130)
T164C 002:149.507 - 0.204ms returns 0
T164C 002:149.521 JLINK_CORESIGHT_ReadAPDPReg(AP reg 0x03)
T164C 002:149.760   Value=0x2C020081
T164C 002:149.781 - 0.260ms returns 0
T164C 002:149.794 JLINK_CORESIGHT_WriteAPDPReg(AP reg 0x00, 0x80000002)
T164C 002:150.045 - 0.251ms returns 0
T164C 002:150.061 JLINK_CORESIGHT_WriteAPDPReg(AP reg 0x01, 0x80011140)
T164C 002:150.262 - 0.201ms returns 0
T164C 002:150.279 JLINK_CORESIGHT_ReadAPDPReg(AP reg 0x03)
T164C 002:150.591   Value=0x00000000
T164C 002:150.610 - 0.331ms returns 0
T164C 002:150.623 JLINK_CORESIGHT_WriteAPDPReg(AP reg 0x00, 0x80000002)
T164C 002:150.839 - 0.216ms returns 0
T164C 002:150.854 JLINK_CORESIGHT_WriteAPDPReg(AP reg 0x01, 0x80011130)
T164C 002:151.053 - 0.199ms returns 0
T164C 002:151.067 JLINK_CORESIGHT_ReadAPDPReg(AP reg 0x03)
T164C 002:151.308   Value=0x0003CE04
T164C 002:151.326 - 0.258ms returns 0
T164C 002:151.346 JLINK_CORESIGHT_WriteAPDPReg(AP reg 0x00, 0x80000002)
T164C 002:151.550 - 0.204ms returns 0
T164C 002:151.584 JLINK_CORESIGHT_WriteAPDPReg(AP reg 0x01, 0x80011140)
T164C 002:151.786 - 0.202ms returns 0
T164C 002:151.803 JLINK_CORESIGHT_ReadAPDPReg(AP reg 0x03)
T164C 002:152.052   Value=0x00000002
T164C 002:152.071 - 0.268ms returns 0
T164C 002:152.083 JLINK_CORESIGHT_WriteAPDPReg(AP reg 0x00, 0x80000002)
T164C 002:152.284 - 0.200ms returns 0
T164C 002:152.298 JLINK_CORESIGHT_WriteAPDPReg(AP reg 0x01, 0x80011120)
T164C 002:152.498 - 0.199ms returns 0
T164C 002:152.512 JLINK_CORESIGHT_WriteAPDPReg(AP reg 0x03, 0x73010001)
T164C 002:152.714 - 0.201ms returns 0
T164C 002:152.728 JLINK_CORESIGHT_WriteAPDPReg(AP reg 0x00, 0x80000002)
T164C 002:152.927 - 0.199ms returns 0
T164C 002:152.941 JLINK_CORESIGHT_WriteAPDPReg(AP reg 0x01, 0x80011140)
T164C 002:153.165 - 0.224ms returns 0
T164C 002:153.179 JLINK_CORESIGHT_ReadAPDPReg(AP reg 0x03)
T164C 002:153.424   Value=0x00000002
T164C 002:153.442 - 0.262ms returns 0
T164C 002:153.454 JLINK_CORESIGHT_WriteAPDPReg(AP reg 0x00, 0x80000002)
T164C 002:153.653 - 0.198ms returns 0
T164C 002:153.667 JLINK_CORESIGHT_WriteAPDPReg(AP reg 0x01, 0x80011120)
T164C 002:153.866 - 0.198ms returns 0
T164C 002:153.880 JLINK_CORESIGHT_WriteAPDPReg(AP reg 0x03, 0x0000038C)
T164C 002:154.088 - 0.208ms returns 0
T164C 002:154.103 JLINK_CORESIGHT_WriteAPDPReg(AP reg 0x00, 0x80000002)
T164C 002:154.320 - 0.217ms returns 0
T164C 002:154.335 JLINK_CORESIGHT_WriteAPDPReg(AP reg 0x01, 0x80011140)
T164C 002:154.589 - 0.254ms returns 0
T164C 002:154.606 JLINK_CORESIGHT_ReadAPDPReg(AP reg 0x03)
T164C 002:154.843   Value=0x00000002
T164C 002:154.865 - 0.258ms returns 0
T164C 002:154.877 JLINK_CORESIGHT_ReadAPDPReg(AP reg 0x03)
T164C 002:155.124   Value=0x00000002
T164C 002:155.144 - 0.267ms returns 0
T164C 002:155.156 JLINK_CORESIGHT_ReadAPDPReg(AP reg 0x03)
T164C 002:155.401   Value=0x00000002
T164C 002:155.419 - 0.262ms returns 0
T164C 002:155.431 JLINK_CORESIGHT_ReadAPDPReg(AP reg 0x03)
T164C 002:155.674   Value=0x00000002
T164C 002:155.692 - 0.261ms returns 0
T164C 002:155.704 JLINK_CORESIGHT_ReadAPDPReg(AP reg 0x03)
T164C 002:156.087   Value=0x00000002
T164C 002:156.144 - 0.439ms returns 0
T164C 002:156.158 JLINK_CORESIGHT_ReadAPDPReg(AP reg 0x03)
T164C 002:156.727   Value=0x00000002
T164C 002:156.902 - 0.742ms returns 0
T164C 002:156.974 JLINK_CORESIGHT_ReadAPDPReg(AP reg 0x03)
T164C 002:157.282   Value=0x00000000
T164C 002:157.318 - 0.345ms returns 0
T164C 002:157.332 JLINK_CORESIGHT_WriteAPDPReg(AP reg 0x00, 0x80000002)
T164C 002:157.534 - 0.201ms returns 0
T164C 002:157.549 JLINK_CORESIGHT_WriteAPDPReg(AP reg 0x01, 0x80011130)
T164C 002:157.749 - 0.200ms returns 0
T164C 002:157.768 JLINK_CORESIGHT_ReadAPDPReg(AP reg 0x03)
T164C 002:158.059   Value=0x73020081
T164C 002:158.106 - 0.338ms returns 0
T164C 002:158.127 JLINK_CORESIGHT_WriteAPDPReg(AP reg 0x00, 0x80000002)
T164C 002:158.355 - 0.228ms returns 0
T164C 002:158.370 JLINK_CORESIGHT_WriteAPDPReg(AP reg 0x01, 0x80011140)
T164C 002:158.591 - 0.220ms returns 0
T164C 002:158.616 JLINK_CORESIGHT_ReadAPDPReg(AP reg 0x03)
T164C 002:158.886   Value=0x00000000
T164C 002:158.904 - 0.287ms returns 0
T164C 002:158.916 JLINK_CORESIGHT_WriteAPDPReg(AP reg 0x00, 0x80000002)
T164C 002:159.163 - 0.247ms returns 0
T164C 002:159.187 JLINK_CORESIGHT_WriteAPDPReg(AP reg 0x01, 0x80011130)
T164C 002:159.390 - 0.203ms returns 0
T164C 002:159.405 JLINK_CORESIGHT_ReadAPDPReg(AP reg 0x03)
T164C 002:159.716   Value=0x00038902
T164C 002:159.734 - 0.328ms returns 0
T164C 002:159.749 JLINK_CORESIGHT_WriteAPDPReg(AP reg 0x00, 0x80000002)
T164C 002:159.966 - 0.217ms returns 0
T164C 002:159.980 JLINK_CORESIGHT_WriteAPDPReg(AP reg 0x01, 0x80011140)
T164C 002:160.198 - 0.217ms returns 0
T164C 002:160.212 JLINK_CORESIGHT_ReadAPDPReg(AP reg 0x03)
T164C 002:160.465   Value=0x00000002
T164C 002:160.483 - 0.270ms returns 0
T164C 002:160.495 JLINK_CORESIGHT_WriteAPDPReg(AP reg 0x00, 0x80000002)
T164C 002:160.716 - 0.220ms returns 0
T164C 002:160.730 JLINK_CORESIGHT_WriteAPDPReg(AP reg 0x01, 0x80011120)
T164C 002:160.932 - 0.202ms returns 0
T164C 002:160.947 JLINK_CORESIGHT_WriteAPDPReg(AP reg 0x03, 0x75010001)
T164C 002:161.158 - 0.210ms returns 0
T164C 002:161.172 JLINK_CORESIGHT_WriteAPDPReg(AP reg 0x00, 0x80000002)
T164C 002:161.383 - 0.210ms returns 0
T164C 002:161.398 JLINK_CORESIGHT_WriteAPDPReg(AP reg 0x01, 0x80011140)
T164C 002:161.678 - 0.279ms returns 0
T164C 002:161.692 JLINK_CORESIGHT_ReadAPDPReg(AP reg 0x03)
T164C 002:161.944   Value=0x00000002
T164C 002:161.962 - 0.269ms returns 0
T164C 002:161.974 JLINK_CORESIGHT_WriteAPDPReg(AP reg 0x00, 0x80000002)
T164C 002:162.177 - 0.203ms returns 0
T164C 002:162.192 JLINK_CORESIGHT_WriteAPDPReg(AP reg 0x01, 0x80011120)
T164C 002:162.407 - 0.215ms returns 0
T164C 002:162.422 JLINK_CORESIGHT_WriteAPDPReg(AP reg 0x03, 0x0000038A)
T164C 002:162.633 - 0.210ms returns 0
T164C 002:162.648 JLINK_CORESIGHT_WriteAPDPReg(AP reg 0x00, 0x80000002)
T164C 002:162.930 - 0.282ms returns 0
T164C 002:162.945 JLINK_CORESIGHT_WriteAPDPReg(AP reg 0x01, 0x80011140)
T164C 002:163.157 - 0.212ms returns 0
T164C 002:163.172 JLINK_CORESIGHT_ReadAPDPReg(AP reg 0x03)
T164C 002:163.426   Value=0x00000002
T164C 002:163.445 - 0.273ms returns 0
T164C 002:163.459 JLINK_CORESIGHT_ReadAPDPReg(AP reg 0x03)
T164C 002:163.706   Value=0x00000002
T164C 002:163.725 - 0.265ms returns 0
T164C 002:163.737 JLINK_CORESIGHT_ReadAPDPReg(AP reg 0x03)
T164C 002:163.966   Value=0x00000002
T164C 002:163.984 - 0.247ms returns 0
T164C 002:164.050 JLINK_CORESIGHT_ReadAPDPReg(AP reg 0x03)
T164C 002:164.304   Value=0x00000002
T164C 002:164.322 - 0.273ms returns 0
T164C 002:164.334 JLINK_CORESIGHT_ReadAPDPReg(AP reg 0x03)
T164C 002:164.591   Value=0x00000002
T164C 002:164.609 - 0.274ms returns 0
T164C 002:164.621 JLINK_CORESIGHT_ReadAPDPReg(AP reg 0x03)
T164C 002:164.843   Value=0x00000002
T164C 002:164.861 - 0.240ms returns 0
T164C 002:164.873 JLINK_CORESIGHT_ReadAPDPReg(AP reg 0x03)
T164C 002:165.123   Value=0x00000002
T164C 002:165.169 - 0.295ms returns 0
T164C 002:165.181 JLINK_CORESIGHT_ReadAPDPReg(AP reg 0x03)
T164C 002:165.428   Value=0x00000002
T164C 002:165.446 - 0.265ms returns 0
T164C 002:165.458 JLINK_CORESIGHT_ReadAPDPReg(AP reg 0x03)
T164C 002:165.706   Value=0x00000002
T164C 002:165.725 - 0.266ms returns 0
T164C 002:165.737 JLINK_CORESIGHT_ReadAPDPReg(AP reg 0x03)
T164C 002:165.966   Value=0x00000002
T164C 002:165.984 - 0.247ms returns 0
T164C 002:165.996 JLINK_CORESIGHT_ReadAPDPReg(AP reg 0x03)
T164C 002:166.259   Value=0x00000000
T164C 002:166.277 - 0.280ms returns 0
T164C 002:166.289 JLINK_CORESIGHT_WriteAPDPReg(AP reg 0x00, 0x80000002)
T164C 002:166.552 - 0.263ms returns 0
T164C 002:166.572 JLINK_CORESIGHT_WriteAPDPReg(AP reg 0x01, 0x80011130)
T164C 002:166.780 - 0.207ms returns 0
T164C 002:166.798 JLINK_CORESIGHT_ReadAPDPReg(AP reg 0x03)
T164C 002:167.061   Value=0x75020081
T164C 002:167.079 - 0.281ms returns 0
T164C 002:167.094 JLINK_CORESIGHT_WriteAPDPReg(AP reg 0x00, 0x80000002)
T164C 002:167.306 - 0.212ms returns 0
T164C 002:167.323 JLINK_CORESIGHT_WriteAPDPReg(AP reg 0x01, 0x80011140)
T164C 002:167.533 - 0.209ms returns 0
T164C 002:167.554 JLINK_CORESIGHT_ReadAPDPReg(AP reg 0x03)
T164C 002:167.788   Value=0x00000000
T164C 002:167.806 - 0.253ms returns 0
T164C 002:167.821 JLINK_CORESIGHT_WriteAPDPReg(AP reg 0x00, 0x80000002)
T164C 002:168.051 - 0.230ms returns 0
T164C 002:168.068 JLINK_CORESIGHT_WriteAPDPReg(AP reg 0x01, 0x80011130)
T164C 002:168.282 - 0.214ms returns 0
T164C 002:168.300 JLINK_CORESIGHT_ReadAPDPReg(AP reg 0x03)
T164C 002:168.552   Value=0x00038702
T164C 002:168.570 - 0.270ms returns 0
T164C 002:169.042 JLINK_CORESIGHT_WriteAPDPReg(AP reg 0x00, 0x80000002)
T164C 002:169.288 - 0.247ms returns 0
T164C 002:169.304 JLINK_CORESIGHT_WriteAPDPReg(AP reg 0x01, 0x80011140)
T164C 002:169.513 - 0.209ms returns 0
T164C 002:169.527 JLINK_CORESIGHT_ReadAPDPReg(AP reg 0x03)
T164C 002:169.844   Value=0x00000002
T164C 002:169.862 - 0.334ms returns 0
T164C 002:169.874 JLINK_CORESIGHT_WriteAPDPReg(AP reg 0x00, 0x80000002)
T164C 002:170.091 - 0.217ms returns 0
T164C 002:170.109 JLINK_CORESIGHT_WriteAPDPReg(AP reg 0x01, 0x80011120)
T164C 002:170.322 - 0.213ms returns 0
T164C 002:170.337 JLINK_CORESIGHT_WriteAPDPReg(AP reg 0x03, 0x4F010001)
T164C 002:170.548 - 0.211ms returns 0
T164C 002:170.562 JLINK_CORESIGHT_WriteAPDPReg(AP reg 0x00, 0x80000002)
T164C 002:170.765 - 0.203ms returns 0
T164C 002:170.780 JLINK_CORESIGHT_WriteAPDPReg(AP reg 0x01, 0x80011140)
T164C 002:171.054 - 0.274ms returns 0
T164C 002:171.068 JLINK_CORESIGHT_ReadAPDPReg(AP reg 0x03)
T164C 002:171.319   Value=0x00000002
T164C 002:171.337 - 0.268ms returns 0
T164C 002:171.349 JLINK_CORESIGHT_WriteAPDPReg(AP reg 0x00, 0x80000002)
T164C 002:171.819 - 0.468ms returns 0
T164C 002:171.988 JLINK_CORESIGHT_WriteAPDPReg(AP reg 0x01, 0x80011120)
T164C 002:172.470 - 0.483ms returns 0
T164C 002:172.506 JLINK_CORESIGHT_WriteAPDPReg(AP reg 0x03, 0x000003B0)
T164C 002:172.721 - 0.214ms returns 0
T164C 002:172.736 JLINK_CORESIGHT_WriteAPDPReg(AP reg 0x00, 0x80000002)
T164C 002:172.948 - 0.211ms returns 0
T164C 002:172.963 JLINK_CORESIGHT_WriteAPDPReg(AP reg 0x01, 0x80011140)
T164C 002:173.176 - 0.213ms returns 0
T164C 002:173.192 JLINK_CORESIGHT_ReadAPDPReg(AP reg 0x03)
T164C 002:173.449   Value=0x00000002
T164C 002:173.468 - 0.276ms returns 0
T164C 002:173.481 JLINK_CORESIGHT_ReadAPDPReg(AP reg 0x03)
T164C 002:173.715   Value=0x00000002
T164C 002:173.734 - 0.252ms returns 0
T164C 002:173.746 JLINK_CORESIGHT_ReadAPDPReg(AP reg 0x03)
T164C 002:174.053   Value=0x00000002
T164C 002:174.071 - 0.325ms returns 0
T164C 002:174.083 JLINK_CORESIGHT_ReadAPDPReg(AP reg 0x03)
T164C 002:174.332   Value=0x00000002
T164C 002:174.352 - 0.268ms returns 0
T164C 002:174.364 JLINK_CORESIGHT_ReadAPDPReg(AP reg 0x03)
T164C 002:174.634   Value=0x00000002
T164C 002:174.652 - 0.288ms returns 0
T164C 002:174.665 JLINK_CORESIGHT_ReadAPDPReg(AP reg 0x03)
T164C 002:174.956   Value=0x00000002
T164C 002:174.974 - 0.309ms returns 0
T164C 002:174.986 JLINK_CORESIGHT_ReadAPDPReg(AP reg 0x03)
T164C 002:175.240   Value=0x00000002
T164C 002:175.258 - 0.272ms returns 0
T164C 002:175.270 JLINK_CORESIGHT_ReadAPDPReg(AP reg 0x03)
T164C 002:175.509   Value=0x00000002
T164C 002:175.527 - 0.257ms returns 0
T164C 002:175.540 JLINK_CORESIGHT_ReadAPDPReg(AP reg 0x03)
T164C 002:175.846   Value=0x00000002
T164C 002:175.864 - 0.324ms returns 0
T164C 002:175.876 JLINK_CORESIGHT_ReadAPDPReg(AP reg 0x03)
T164C 002:176.136   Value=0x00000002
T164C 002:176.154 - 0.277ms returns 0
T164C 002:176.166 JLINK_CORESIGHT_ReadAPDPReg(AP reg 0x03)
T164C 002:176.470   Value=0x00000000
T164C 002:176.488 - 0.321ms returns 0
T164C 002:176.500 JLINK_CORESIGHT_WriteAPDPReg(AP reg 0x00, 0x80000002)
T164C 002:176.717 - 0.217ms returns 0
T164C 002:176.731 JLINK_CORESIGHT_WriteAPDPReg(AP reg 0x01, 0x80011130)
T164C 002:176.940 - 0.209ms returns 0
T164C 002:176.955 JLINK_CORESIGHT_ReadAPDPReg(AP reg 0x03)
T164C 002:177.242   Value=0x4F0B0081
T164C 002:177.261 - 0.306ms returns 0
T164C 002:177.273 JLINK_CORESIGHT_WriteAPDPReg(AP reg 0x00, 0x80000002)
T164C 002:177.466 - 0.193ms returns 0
T164C 002:177.481 JLINK_CORESIGHT_WriteAPDPReg(AP reg 0x01, 0x80011140)
T164C 002:177.697 - 0.216ms returns 0
T164C 002:177.712 JLINK_CORESIGHT_ReadAPDPReg(AP reg 0x03)
T164C 002:177.966   Value=0x00000000
T164C 002:177.988 - 0.276ms returns 0
T164C 002:178.000 JLINK_CORESIGHT_WriteAPDPReg(AP reg 0x00, 0x80000002)
T164C 002:178.214 - 0.214ms returns 0
T164C 002:178.229 JLINK_CORESIGHT_WriteAPDPReg(AP reg 0x01, 0x80011130)
T164C 002:178.447 - 0.218ms returns 0
T164C 002:178.461 JLINK_CORESIGHT_ReadAPDPReg(AP reg 0x03)
T164C 002:178.716   Value=0x00040000
T164C 002:178.733 - 0.272ms returns 0
T164C 002:178.745 JLINK_CORESIGHT_WriteAPDPReg(AP reg 0x00, 0x80000002)
T164C 002:178.946 - 0.200ms returns 0
T164C 002:178.960 JLINK_CORESIGHT_WriteAPDPReg(AP reg 0x01, 0x80011140)
T164C 002:179.163 - 0.203ms returns 0
T164C 002:179.180 JLINK_CORESIGHT_ReadAPDPReg(AP reg 0x03)
T164C 002:179.425   Value=0x00000000
T164C 002:179.443 - 0.263ms returns 0
T164C 002:179.455 JLINK_CORESIGHT_WriteAPDPReg(AP reg 0x00, 0x80000002)
T164C 002:179.658 - 0.202ms returns 0
T164C 002:179.672 JLINK_CORESIGHT_WriteAPDPReg(AP reg 0x01, 0x80011130)
T164C 002:179.883 - 0.210ms returns 0
T164C 002:179.897 JLINK_CORESIGHT_ReadAPDPReg(AP reg 0x03)
T164C 002:180.216   Value=0x00000C00
T164C 002:180.233 - 0.336ms returns 0
T164C 002:180.246 JLINK_CORESIGHT_WriteAPDPReg(AP reg 0x00, 0x80000002)
T164C 002:180.465 - 0.219ms returns 0
T164C 002:180.480 JLINK_CORESIGHT_WriteAPDPReg(AP reg 0x01, 0x80011140)
T164C 002:180.697 - 0.217ms returns 0
T164C 002:180.712 JLINK_CORESIGHT_ReadAPDPReg(AP reg 0x03)
T164C 002:180.974   Value=0x00000000
T164C 002:180.992 - 0.280ms returns 0
T164C 002:181.004 JLINK_CORESIGHT_WriteAPDPReg(AP reg 0x00, 0x80000002)
T164C 002:181.206 - 0.202ms returns 0
T164C 002:181.221 JLINK_CORESIGHT_WriteAPDPReg(AP reg 0x01, 0x80011130)
T164C 002:181.427 - 0.206ms returns 0
T164C 002:181.442 JLINK_CORESIGHT_ReadAPDPReg(AP reg 0x03)
T164C 002:181.693   Value=0x03960000
T164C 002:181.711 - 0.268ms returns 0
T164C 002:181.782 JLINK_CORESIGHT_ReadAPDPReg(DP reg 0x01)
T164C 002:181.975   Value=0xF0000F40
T164C 002:181.996 - 0.214ms returns 0
T164C 002:182.008 JLINK_CORESIGHT_WriteAPDPReg(DP reg 0x01, 0xA0000F40)
T164C 002:182.215 - 0.207ms returns 0
T164C 002:182.231 JLINK_CORESIGHT_ReadAPDPReg(DP reg 0x01)
T164C 002:182.447   Value=0x00000F40
T164C 002:182.472 - 0.241ms returns 0
T164C 002:182.485 JLINK_ClrRESET()
T164C 002:182.671 - 0.186ms 
T164C 002:290.794 JLINK_Close()
T164C 002:304.722 - 13.926ms
T164C 002:305.044   
T164C 002:305.079   Closed
